           * c:\users\user\desktop\esim\zerocrossing\zerocrossing.cir
           Transient Analysis  Wed Mar 09 20:44:40  2022
--------------------------------------------------------------------------------
Index   time            a3#branch_1_0   v1#branch       v2#branch       
--------------------------------------------------------------------------------
0	0.000000e+00	0.000000e+00	-4.83367e-04	-4.83336e-04	
1	1.000000e-04	0.000000e+00	-4.83367e-04	-4.83336e-04	
2	2.000000e-04	0.000000e+00	-4.83367e-04	-4.83336e-04	
3	4.000000e-04	0.000000e+00	-4.83367e-04	-4.83336e-04	
4	8.000000e-04	0.000000e+00	-4.83367e-04	-4.83336e-04	
5	1.600000e-03	0.000000e+00	-4.83367e-04	-4.83336e-04	
6	3.200000e-03	0.000000e+00	-4.83367e-04	-4.83336e-04	
7	6.400000e-03	0.000000e+00	-4.83367e-04	-4.83336e-04	
8	1.280000e-02	0.000000e+00	-4.83367e-04	-4.83336e-04	
9	2.280000e-02	0.000000e+00	-4.83367e-04	-4.83336e-04	
10	3.280000e-02	0.000000e+00	-4.83367e-04	-4.83336e-04	
11	4.280000e-02	0.000000e+00	-4.83367e-04	-4.83336e-04	
12	5.280000e-02	0.000000e+00	-4.83367e-04	-4.83336e-04	
13	6.280000e-02	0.000000e+00	-4.83367e-04	-4.83336e-04	
14	7.280000e-02	0.000000e+00	-4.83367e-04	-4.83336e-04	
15	8.280000e-02	0.000000e+00	-4.83367e-04	-4.83336e-04	
16	9.280000e-02	0.000000e+00	-4.83367e-04	-4.83336e-04	
17	1.028000e-01	0.000000e+00	-4.83369e-04	-4.83334e-04	
18	1.128000e-01	0.000000e+00	-4.83376e-04	-4.83326e-04	
19	1.205256e-01	0.000000e+00	-4.83393e-04	-4.83309e-04	
20	1.258196e-01	0.000000e+00	-4.83417e-04	-4.83284e-04	
21	1.303684e-01	0.000000e+00	-4.83455e-04	-4.83245e-04	
22	1.348068e-01	0.000000e+00	-4.83522e-04	-4.83181e-04	
23	1.392786e-01	0.000000e+00	-4.83645e-04	-4.83075e-04	
24	1.437598e-01	0.000000e+00	-4.83872e-04	-4.82906e-04	
25	1.485451e-01	0.000000e+00	-4.84354e-04	-4.82634e-04	
26	1.530046e-01	0.000000e+00	-4.85258e-04	-4.82302e-04	
27	1.575979e-01	0.000000e+00	-4.87101e-04	-4.81919e-04	
28	1.619863e-01	0.000000e+00	-4.90409e-04	-4.81542e-04	
29	1.664653e-01	0.000000e+00	-4.96475e-04	-4.81111e-04	
30	1.708287e-01	0.000000e+00	-5.06809e-04	-4.80564e-04	
31	1.752554e-01	0.000000e+00	-5.24953e-04	-4.79739e-04	
32	1.796158e-01	0.000000e+00	-5.55687e-04	-4.78444e-04	
33	1.840186e-01	0.000000e+00	-6.08984e-04	-4.76282e-04	
34	1.883821e-01	0.000000e+00	-6.99521e-04	-4.72679e-04	
35	1.922438e-01	0.000000e+00	-8.31165e-04	-4.67477e-04	
36	1.934818e-01	0.000000e+00	-8.85932e-04	-4.63870e-04	
37	1.940021e-01	0.000000e+00	-4.82574e-04	-1.20309e-03	
38	1.941562e-01	0.000000e+00	-4.82206e-04	-1.19459e-03	
39	1.942532e-01	0.000000e+00	-4.82456e-04	-1.18953e-03	
40	1.942990e-01	0.000000e+00	-4.82183e-04	-1.18688e-03	
41	1.943248e-01	0.000000e+00	-4.82445e-04	-1.18569e-03	
42	1.943248e-01	0.000000e+00	-4.82411e-04	-1.18566e-03	
43	1.943248e-01	0.000000e+00	-4.82377e-04	-1.18562e-03	
44	1.943248e-01	0.000000e+00	-4.82334e-04	-1.18558e-03	
45	1.943248e-01	0.000000e+00	-4.82318e-04	-1.18556e-03	
46	1.943249e-01	0.000000e+00	-4.82297e-04	-1.18554e-03	
47	1.943249e-01	0.000000e+00	-4.82311e-04	-1.18556e-03	
48	1.943249e-01	0.000000e+00	-4.82309e-04	-1.18555e-03	
49	1.943250e-01	0.000000e+00	-4.82311e-04	-1.18556e-03	
50	1.943252e-01	0.000000e+00	-4.82310e-04	-1.18555e-03	
51	1.943257e-01	0.000000e+00	-4.82312e-04	-1.18554e-03	
52	1.943263e-01	0.000000e+00	-4.82311e-04	-1.18551e-03	
53	1.943272e-01	0.000000e+00	-4.82312e-04	-1.18546e-03	
54	1.943286e-01	0.000000e+00	-4.82310e-04	-1.18539e-03	

Index   time            a3#branch_1_0   v1#branch       v2#branch       
--------------------------------------------------------------------------------
55	1.943313e-01	0.000000e+00	-4.82312e-04	-1.18524e-03	
56	1.943368e-01	0.000000e+00	-4.82309e-04	-1.18495e-03	
57	1.943475e-01	0.000000e+00	-4.82309e-04	-1.18439e-03	
58	1.943486e-01	0.000000e+00	-4.82308e-04	-1.18433e-03	
59	1.943508e-01	0.000000e+00	-4.82308e-04	-1.18421e-03	
60	1.943552e-01	0.000000e+00	-4.82307e-04	-1.18398e-03	
61	1.943640e-01	0.000000e+00	-4.82306e-04	-1.18352e-03	
62	1.943816e-01	0.000000e+00	-4.82303e-04	-1.18259e-03	
63	1.944168e-01	0.000000e+00	-4.82298e-04	-1.18074e-03	
64	1.944872e-01	0.000000e+00	-4.82288e-04	-1.17706e-03	
65	1.946280e-01	0.000000e+00	-4.82267e-04	-1.16979e-03	
66	1.949096e-01	0.000000e+00	-4.82227e-04	-1.15553e-03	
67	1.954728e-01	0.000000e+00	-4.82151e-04	-1.12818e-03	
68	1.965992e-01	0.000000e+00	-4.82011e-04	-1.07784e-03	
69	1.983889e-01	0.000000e+00	-4.81820e-04	-1.00849e-03	
70	2.000462e-01	0.000000e+00	-4.81672e-04	-9.54441e-04	
71	2.016030e-01	0.000000e+00	-4.81555e-04	-9.11186e-04	
72	2.022439e-01	0.000000e+00	-4.81532e-04	-8.95281e-04	
73	2.026082e-01	0.000000e+00	-4.82888e-04	-8.88054e-04	
74	2.028667e-01	0.000000e+00	-4.86246e-04	-8.85505e-04	
75	2.030837e-01	0.000000e+00	-4.89457e-04	-8.83868e-04	
76	2.032002e-01	0.000000e+00	-4.89887e-04	-8.81735e-04	
77	2.033110e-01	0.000000e+00	-4.90226e-04	-8.79657e-04	
78	2.034285e-01	0.000000e+00	-4.90513e-04	-8.77400e-04	
79	2.036635e-01	0.000000e+00	-4.91064e-04	-8.72877e-04	
80	2.039218e-01	0.000000e+00	-4.91599e-04	-8.67538e-04	
81	2.039259e-01	0.000000e+00	-4.91602e-04	-8.67142e-04	
82	2.039343e-01	0.000000e+00	-4.91617e-04	-8.66871e-04	
83	2.039376e-01	0.000000e+00	-4.91625e-04	-8.66735e-04	
84	2.039429e-01	0.000000e+00	-4.91635e-04	-8.66510e-04	
85	2.039478e-01	0.000000e+00	-4.91645e-04	-8.66381e-04	
86	2.039528e-01	0.000000e+00	-4.91655e-04	-8.66178e-04	
87	2.039582e-01	0.000000e+00	-4.91666e-04	-8.65986e-04	
88	2.039648e-01	0.000000e+00	-4.91679e-04	-8.65703e-04	
89	2.039737e-01	0.000000e+00	-4.91698e-04	-8.65285e-04	
90	2.039870e-01	0.000000e+00	-4.91726e-04	-8.64416e-04	
91	2.039888e-01	0.000000e+00	-4.91731e-04	-8.64227e-04	
92	2.039924e-01	0.000000e+00	-4.91740e-04	-8.63776e-04	
93	2.039933e-01	0.000000e+00	-4.91742e-04	-8.63623e-04	
94	2.039951e-01	0.000000e+00	-4.91748e-04	-8.63246e-04	
95	2.039960e-01	0.000000e+00	-4.91751e-04	-8.62987e-04	
96	2.039978e-01	0.000000e+00	-4.91758e-04	-8.62068e-04	
97	2.039985e-01	0.000000e+00	-4.91759e-04	-8.61459e-04	
98	2.039989e-01	0.000000e+00	-4.91760e-04	-8.60837e-04	
99	2.039994e-01	0.000000e+00	-4.91756e-04	-8.59605e-04	
100	2.039997e-01	0.000000e+00	-4.91748e-04	-8.58130e-04	
101	2.040000e-01	0.000000e+00	-4.91731e-04	-8.55911e-04	
102	2.040003e-01	0.000000e+00	-4.91701e-04	-8.52198e-04	
103	2.040007e-01	0.000000e+00	-4.91664e-04	-8.45084e-04	
104	2.040010e-01	0.000000e+00	-4.91650e-04	-8.31938e-04	
105	2.040014e-01	0.000000e+00	-4.91550e-04	-8.10463e-04	
106	2.040017e-01	0.000000e+00	-4.91292e-04	-7.92811e-04	
107	2.040020e-01	0.000000e+00	-4.90953e-04	-7.73861e-04	
108	2.040023e-01	0.000000e+00	-4.90603e-04	-7.54630e-04	
109	2.040029e-01	0.000000e+00	-4.89864e-04	-7.15889e-04	
110	2.040040e-01	0.000000e+00	-4.88367e-04	-6.38322e-04	
111	2.040051e-01	0.000000e+00	-4.86993e-04	-5.68386e-04	
112	2.040058e-01	0.000000e+00	-4.85947e-04	-5.17812e-04	

Index   time            a3#branch_1_0   v1#branch       v2#branch       
--------------------------------------------------------------------------------
113	2.040065e-01	0.000000e+00	-4.86178e-04	-4.86201e-04	
114	2.040069e-01	0.000000e+00	-5.04199e-04	-4.84139e-04	
115	2.040072e-01	0.000000e+00	-5.20850e-04	-4.83987e-04	
116	2.040075e-01	0.000000e+00	-5.40917e-04	-4.83033e-04	
117	2.040078e-01	0.000000e+00	-5.60449e-04	-4.82686e-04	
118	2.040082e-01	0.000000e+00	-5.81378e-04	-4.81793e-04	
119	2.040088e-01	0.000000e+00	-6.24413e-04	-4.80651e-04	
120	2.040096e-01	0.000000e+00	-6.78066e-04	-4.78767e-04	
121	2.040113e-01	0.000000e+00	-7.87201e-04	-4.75553e-04	
122	2.040136e-01	0.000000e+00	-9.42415e-04	-4.70458e-04	
123	2.040160e-01	0.000000e+00	-1.10756e-03	-4.65209e-04	
124	2.040170e-01	0.000000e+00	-1.17439e-03	-4.62477e-04	
125	2.040176e-01	0.000000e+00	-1.21306e-03	-4.61054e-04	
126	2.040179e-01	0.000000e+00	-1.23267e-03	-4.58899e-04	
127	2.040180e-01	0.000000e+00	-1.22630e-03	-4.41793e-04	
128	2.040181e-01	0.000000e+00	-1.19537e-03	-4.06418e-04	
129	2.040182e-01	0.000000e+00	-1.16006e-03	-3.68103e-04	
130	2.040182e-01	0.000000e+00	-1.14293e-03	-3.49768e-04	
131	2.040183e-01	0.000000e+00	-1.13237e-03	-3.38529e-04	
132	2.040183e-01	0.000000e+00	-1.12250e-03	-3.28096e-04	
133	2.040183e-01	0.000000e+00	-1.11684e-03	-3.22111e-04	
134	2.040183e-01	0.000000e+00	-1.10978e-03	-3.14712e-04	
135	2.040184e-01	0.000000e+00	-1.10428e-03	-3.08913e-04	
136	2.040184e-01	0.000000e+00	-1.09581e-03	-3.00004e-04	
137	2.040184e-01	0.000000e+00	-1.09138e-03	-2.95306e-04	
138	2.040185e-01	0.000000e+00	-1.08876e-03	-2.92536e-04	
139	2.040185e-01	0.000000e+00	-1.08700e-03	-2.90642e-04	
140	2.040186e-01	0.000000e+00	-1.08581e-03	-2.89374e-04	
141	2.040186e-01	0.000000e+00	-1.08510e-03	-2.88591e-04	
142	2.040187e-01	0.000000e+00	-1.08434e-03	-2.87796e-04	
143	2.040187e-01	0.000000e+00	-1.08381e-03	-2.87223e-04	
144	2.040188e-01	0.000000e+00	-1.08301e-03	-2.86397e-04	
145	2.040189e-01	0.000000e+00	-1.08221e-03	-2.85571e-04	
146	2.040191e-01	0.000000e+00	-1.08084e-03	-2.84178e-04	
147	2.040193e-01	0.000000e+00	-1.07890e-03	-2.82187e-04	
148	2.040195e-01	0.000000e+00	-1.07740e-03	-2.80661e-04	
149	2.040197e-01	0.000000e+00	-1.07661e-03	-2.79856e-04	
150	2.040198e-01	0.000000e+00	-1.07610e-03	-2.79339e-04	
151	2.040199e-01	0.000000e+00	-1.07600e-03	-2.79238e-04	
152	2.040200e-01	0.000000e+00	-1.07581e-03	-2.79047e-04	
153	2.040201e-01	0.000000e+00	-1.07588e-03	-2.79122e-04	
154	2.040201e-01	0.000000e+00	-1.07575e-03	-2.78994e-04	
155	2.040202e-01	0.000000e+00	-1.07584e-03	-2.79088e-04	
156	2.040203e-01	0.000000e+00	-1.07571e-03	-2.78963e-04	
157	2.040205e-01	0.000000e+00	-1.07568e-03	-2.78936e-04	
158	2.040206e-01	0.000000e+00	-1.07504e-03	-2.78290e-04	
159	2.040207e-01	0.000000e+00	-1.07371e-03	-2.76922e-04	
160	2.040208e-01	0.000000e+00	-1.07120e-03	-2.74344e-04	
161	2.040208e-01	0.000000e+00	-1.06835e-03	-2.71420e-04	
162	2.040209e-01	0.000000e+00	-1.06652e-03	-2.69549e-04	
163	2.040210e-01	0.000000e+00	-1.06555e-03	-2.68557e-04	
164	2.040211e-01	0.000000e+00	-1.06470e-03	-2.67691e-04	
165	2.040211e-01	0.000000e+00	-1.06443e-03	-2.67412e-04	
166	2.040212e-01	0.000000e+00	-1.06409e-03	-2.67067e-04	
167	2.040213e-01	0.000000e+00	-1.06406e-03	-2.67041e-04	
168	2.040215e-01	0.000000e+00	-1.06389e-03	-2.66880e-04	
169	2.040216e-01	0.000000e+00	-1.06395e-03	-2.66949e-04	
170	2.040219e-01	0.000000e+00	-1.06384e-03	-2.66851e-04	

Index   time            a3#branch_1_0   v1#branch       v2#branch       
--------------------------------------------------------------------------------
171	2.040223e-01	0.000000e+00	-1.06391e-03	-2.66945e-04	
172	2.040229e-01	0.000000e+00	-1.06378e-03	-2.66851e-04	
173	2.040240e-01	0.000000e+00	-1.06381e-03	-2.66945e-04	
174	2.040263e-01	0.000000e+00	-1.06358e-03	-2.66851e-04	
175	2.040308e-01	0.000000e+00	-1.06341e-03	-2.66945e-04	
176	2.040398e-01	0.000000e+00	-1.06277e-03	-2.66851e-04	
177	2.040579e-01	0.000000e+00	-1.06180e-03	-2.66945e-04	
178	2.040941e-01	0.000000e+00	-1.05956e-03	-2.66851e-04	
179	2.041665e-01	0.000000e+00	-1.05540e-03	-2.66945e-04	
180	2.043112e-01	0.000000e+00	-1.04688e-03	-2.66851e-04	
181	2.046007e-01	0.000000e+00	-1.03049e-03	-2.66945e-04	
182	2.051797e-01	0.000000e+00	-9.98799e-04	-2.66852e-04	
183	2.063377e-01	0.000000e+00	-9.40892e-04	-2.66947e-04	
184	2.086537e-01	0.000000e+00	-8.42794e-04	-2.66854e-04	
185	2.112875e-01	0.000000e+00	-7.55743e-04	-2.66949e-04	
186	2.122248e-01	0.000000e+00	-7.29877e-04	-2.66833e-04	
187	2.127892e-01	0.000000e+00	-7.15251e-04	-2.66592e-04	
188	2.131273e-01	0.000000e+00	-7.05877e-04	-2.65476e-04	
189	2.132752e-01	0.000000e+00	-7.01657e-04	-2.64780e-04	
190	2.133271e-01	0.000000e+00	-6.99813e-04	-2.64162e-04	
191	2.133275e-01	0.000000e+00	-6.99841e-04	-2.64196e-04	
192	2.133282e-01	0.000000e+00	-6.99803e-04	-2.64174e-04	
193	2.133296e-01	0.000000e+00	-6.99727e-04	-2.64130e-04	
194	2.133323e-01	0.000000e+00	-6.99585e-04	-2.64050e-04	
195	2.133349e-01	0.000000e+00	-6.99462e-04	-2.63986e-04	
196	2.133365e-01	0.000000e+00	-6.99408e-04	-2.63971e-04	
197	2.133377e-01	0.000000e+00	-6.99400e-04	-2.63992e-04	
198	2.133389e-01	0.000000e+00	-6.99438e-04	-2.64060e-04	
199	2.133404e-01	0.000000e+00	-6.99575e-04	-2.64236e-04	
200	2.133419e-01	0.000000e+00	-6.99820e-04	-2.64523e-04	
201	2.133449e-01	0.000000e+00	-7.00567e-04	-2.65362e-04	
202	2.133481e-01	0.000000e+00	-7.01678e-04	-2.66579e-04	
203	2.133534e-01	0.000000e+00	-7.04017e-04	-2.69106e-04	
204	2.133578e-01	0.000000e+00	-7.06564e-04	-2.71825e-04	
205	2.133596e-01	0.000000e+00	-7.09491e-04	-2.74871e-04	
206	2.133605e-01	0.000000e+00	-7.15070e-04	-2.80614e-04	
207	2.133610e-01	0.000000e+00	-7.22152e-04	-2.87893e-04	
208	2.133614e-01	0.000000e+00	-7.30594e-04	-2.96570e-04	
209	2.133617e-01	0.000000e+00	-7.40914e-04	-3.07185e-04	
210	2.133620e-01	0.000000e+00	-7.54173e-04	-3.20837e-04	
211	2.133621e-01	0.000000e+00	-7.64389e-04	-3.31369e-04	
212	2.133622e-01	0.000000e+00	-7.72095e-04	-3.39322e-04	
213	2.133624e-01	0.000000e+00	-7.84349e-04	-3.51992e-04	
214	2.133625e-01	0.000000e+00	-7.95657e-04	-3.63717e-04	
215	2.133626e-01	0.000000e+00	-8.10424e-04	-3.79071e-04	
216	2.133629e-01	0.000000e+00	-8.44702e-04	-4.15054e-04	
217	2.133631e-01	0.000000e+00	-8.74090e-04	-4.47052e-04	
218	2.133632e-01	0.000000e+00	-8.84280e-04	-4.60058e-04	
219	2.133633e-01	0.000000e+00	-8.86698e-04	-4.65646e-04	
220	2.133635e-01	0.000000e+00	-8.83025e-04	-4.66625e-04	
221	2.133636e-01	0.000000e+00	-8.79658e-04	-4.67114e-04	
222	2.133637e-01	0.000000e+00	-8.74021e-04	-4.66911e-04	
223	2.133638e-01	0.000000e+00	-8.67929e-04	-4.67445e-04	
224	2.133640e-01	0.000000e+00	-8.57343e-04	-4.67268e-04	
225	2.133643e-01	0.000000e+00	-8.41534e-04	-4.67609e-04	
226	2.133647e-01	0.000000e+00	-8.16160e-04	-4.67157e-04	
227	2.133651e-01	0.000000e+00	-7.91140e-04	-4.67314e-04	
228	2.133657e-01	0.000000e+00	-7.52075e-04	-4.66974e-04	

Index   time            a3#branch_1_0   v1#branch       v2#branch       
--------------------------------------------------------------------------------
229	2.133667e-01	0.000000e+00	-6.84572e-04	-4.67649e-04	
230	2.133678e-01	0.000000e+00	-6.14238e-04	-4.68273e-04	
231	2.133690e-01	0.000000e+00	-5.39223e-04	-4.69959e-04	
232	2.133698e-01	0.000000e+00	-4.91208e-04	-4.70987e-04	
233	2.133703e-01	0.000000e+00	-4.72661e-04	-4.73912e-04	
234	2.133706e-01	0.000000e+00	-4.71670e-04	-4.86746e-04	
235	2.133708e-01	0.000000e+00	-4.72032e-04	-5.00461e-04	
236	2.133711e-01	0.000000e+00	-4.71935e-04	-5.14437e-04	
237	2.133714e-01	0.000000e+00	-4.72456e-04	-5.35362e-04	
238	2.133720e-01	0.000000e+00	-4.72796e-04	-5.76858e-04	
239	2.133727e-01	0.000000e+00	-4.73636e-04	-6.17018e-04	
240	2.133739e-01	0.000000e+00	-4.74663e-04	-6.97342e-04	
241	2.133754e-01	0.000000e+00	-4.76608e-04	-7.99700e-04	
242	2.133772e-01	0.000000e+00	-4.78357e-04	-9.14172e-04	
243	2.133788e-01	0.000000e+00	-4.80473e-04	-1.01950e-03	
244	2.133807e-01	0.000000e+00	-4.82580e-04	-1.14918e-03	
245	2.133815e-01	0.000000e+00	-4.83707e-04	-1.19803e-03	
246	2.133818e-01	0.000000e+00	-4.83351e-04	-1.21428e-03	
247	2.133818e-01	0.000000e+00	-4.82593e-04	-1.21569e-03	
248	2.133819e-01	0.000000e+00	-4.82839e-04	-1.21692e-03	
249	2.133820e-01	0.000000e+00	-4.82597e-04	-1.21715e-03	
250	2.133821e-01	0.000000e+00	-4.82618e-04	-1.21743e-03	
251	2.133821e-01	0.000000e+00	-4.82695e-04	-1.21768e-03	
252	2.133822e-01	0.000000e+00	-4.82564e-04	-1.21766e-03	
253	2.133823e-01	0.000000e+00	-4.82728e-04	-1.21792e-03	
254	2.133824e-01	0.000000e+00	-4.82559e-04	-1.21781e-03	
255	2.133826e-01	0.000000e+00	-4.82735e-04	-1.21805e-03	
256	2.133827e-01	0.000000e+00	-4.82561e-04	-1.21789e-03	
257	2.133829e-01	0.000000e+00	-4.82731e-04	-1.21809e-03	
258	2.133832e-01	0.000000e+00	-4.82555e-04	-1.21791e-03	
259	2.133836e-01	0.000000e+00	-4.82716e-04	-1.21806e-03	
260	2.133841e-01	0.000000e+00	-4.82537e-04	-1.21785e-03	
261	2.133849e-01	0.000000e+00	-4.82690e-04	-1.21797e-03	
262	2.133859e-01	0.000000e+00	-4.82505e-04	-1.21771e-03	
263	2.133879e-01	0.000000e+00	-4.82645e-04	-1.21776e-03	
264	2.133903e-01	0.000000e+00	-4.82451e-04	-1.21741e-03	
265	2.133952e-01	0.000000e+00	-4.82582e-04	-1.21728e-03	
266	2.134014e-01	0.000000e+00	-4.82387e-04	-1.21673e-03	
267	2.134138e-01	0.000000e+00	-4.82524e-04	-1.21619e-03	
268	2.134298e-01	0.000000e+00	-4.82338e-04	-1.21510e-03	
269	2.134617e-01	0.000000e+00	-4.82487e-04	-1.21349e-03	
270	2.134979e-01	0.000000e+00	-4.82308e-04	-1.21129e-03	
271	2.135598e-01	0.000000e+00	-4.82462e-04	-1.20804e-03	
272	2.136327e-01	0.000000e+00	-4.82281e-04	-1.20385e-03	
273	2.137607e-01	0.000000e+00	-4.82428e-04	-1.19707e-03	
274	2.139219e-01	0.000000e+00	-4.82236e-04	-1.18825e-03	
275	2.142344e-01	0.000000e+00	-4.82357e-04	-1.17207e-03	
276	2.147731e-01	0.000000e+00	-4.82114e-04	-1.14484e-03	
277	2.158505e-01	0.000000e+00	-4.82142e-04	-1.09505e-03	
278	2.180052e-01	0.000000e+00	-4.81739e-04	-1.00944e-03	
279	2.204434e-01	0.000000e+00	-4.81696e-04	-9.32626e-04	
280	2.212111e-01	0.000000e+00	-4.81474e-04	-9.11917e-04	
281	2.217349e-01	0.000000e+00	-4.81603e-04	-8.98970e-04	
282	2.222864e-01	0.000000e+00	-4.82935e-04	-8.87215e-04	
283	2.225002e-01	0.000000e+00	-4.86373e-04	-8.85791e-04	
284	2.227071e-01	0.000000e+00	-4.89256e-04	-8.84031e-04	
285	2.229031e-01	0.000000e+00	-4.90167e-04	-8.80651e-04	
286	2.230842e-01	0.000000e+00	-4.90512e-04	-8.77056e-04	

Index   time            a3#branch_1_0   v1#branch       v2#branch       
--------------------------------------------------------------------------------
287	2.232794e-01	0.000000e+00	-4.91111e-04	-8.73458e-04	
288	2.233736e-01	0.000000e+00	-4.91122e-04	-8.71376e-04	
289	2.235621e-01	0.000000e+00	-4.91676e-04	-8.67445e-04	
290	2.235680e-01	0.000000e+00	-4.91605e-04	-8.67034e-04	
291	2.235798e-01	0.000000e+00	-4.91628e-04	-8.66654e-04	
292	2.235864e-01	0.000000e+00	-4.91642e-04	-8.66431e-04	
293	2.235958e-01	0.000000e+00	-4.91661e-04	-8.66070e-04	
294	2.236094e-01	0.000000e+00	-4.91688e-04	-8.65517e-04	
295	2.236230e-01	0.000000e+00	-4.91717e-04	-8.64736e-04	
296	2.236250e-01	0.000000e+00	-4.91721e-04	-8.64580e-04	
297	2.236289e-01	0.000000e+00	-4.91731e-04	-8.64229e-04	
298	2.236299e-01	0.000000e+00	-4.91733e-04	-8.64122e-04	
299	2.236319e-01	0.000000e+00	-4.91738e-04	-8.63880e-04	
300	2.236358e-01	0.000000e+00	-4.91749e-04	-8.63115e-04	
301	2.236363e-01	0.000000e+00	-4.91751e-04	-8.62960e-04	
302	2.236372e-01	0.000000e+00	-4.91754e-04	-8.62592e-04	
303	2.236374e-01	0.000000e+00	-4.91755e-04	-8.62471e-04	
304	2.236379e-01	0.000000e+00	-4.91757e-04	-8.62194e-04	
305	2.236388e-01	0.000000e+00	-4.91760e-04	-8.61294e-04	
306	2.236395e-01	0.000000e+00	-4.91758e-04	-8.59877e-04	
307	2.236399e-01	0.000000e+00	-4.91749e-04	-8.58479e-04	
308	2.236402e-01	0.000000e+00	-4.91737e-04	-8.56607e-04	
309	2.236405e-01	0.000000e+00	-4.91711e-04	-8.53588e-04	
310	2.236408e-01	0.000000e+00	-4.91676e-04	-8.47971e-04	
311	2.236411e-01	0.000000e+00	-4.91648e-04	-8.36531e-04	
312	2.236415e-01	0.000000e+00	-4.91614e-04	-8.17637e-04	
313	2.236418e-01	0.000000e+00	-4.91397e-04	-7.99486e-04	
314	2.236421e-01	0.000000e+00	-4.91103e-04	-7.82183e-04	
315	2.236423e-01	0.000000e+00	-4.90790e-04	-7.64784e-04	
316	2.236429e-01	0.000000e+00	-4.90128e-04	-7.29606e-04	
317	2.236439e-01	0.000000e+00	-4.88766e-04	-6.58981e-04	
318	2.236450e-01	0.000000e+00	-4.87378e-04	-5.87735e-04	
319	2.236463e-01	0.000000e+00	-4.85675e-04	-5.03587e-04	
320	2.236469e-01	0.000000e+00	-4.92879e-04	-4.84003e-04	
321	2.236472e-01	0.000000e+00	-5.11884e-04	-4.84713e-04	
322	2.236476e-01	0.000000e+00	-5.35747e-04	-4.82790e-04	
323	2.236479e-01	0.000000e+00	-5.51405e-04	-4.83312e-04	
324	2.236481e-01	0.000000e+00	-5.65083e-04	-4.82050e-04	
325	2.236484e-01	0.000000e+00	-5.81646e-04	-4.82192e-04	
